Title: ** sch_path: /home/designer/shared/design/cclna/testbench_currentm_ota.sch
Date: Tue Jan 20 03:50:01  2026
Command: ngspice-44.2, Build Tue Dec  9 03:02:56 UTC 2025
Plotname: AC Analysis
Flags: complex
No. Variables: 3
No. Points: 884
Variables:
	0	frequency	frequency grid=3
	1	vdb(vout)	decibel
	2	vp(vout)	phase
Values:
 0	1.000000000000000e-01,0.000000000000000e+00
	4.334138522226912e+01,0.0
	-6.917232017304352e-02,0.0

 1	1.029210974552228e-01,0.000000000000000e+00
	4.334138484729058e+01,0.0
	-7.119290900829431e-02,0.0

 2	1.059275230138746e-01,0.000000000000000e+00
	4.334138445008513e+01,0.0
	-7.327252102773245e-02,0.0

 3	1.090217691930134e-01,0.000000000000000e+00
	4.334138402933527e+01,0.0
	-7.541288033941168e-02,0.0

 4	1.122064013185493e-01,0.000000000000000e+00
	4.334138358364542e+01,0.0
	-7.761576141275757e-02,0.0

 5	1.154840596520625e-01,0.000000000000000e+00
	4.334138311153723e+01,0.0
	-7.988299054953667e-02,0.0

 6	1.188574615797468e-01,0.000000000000000e+00
	4.334138261144480e+01,0.0
	-8.221644739778142e-02,0.0

 7	1.223294038652952e-01,0.000000000000000e+00
	4.334138208170933e+01,0.0
	-8.461806650992572e-02,0.0

 8	1.259027649685935e-01,0.000000000000000e+00
	4.334138152057373e+01,0.0
	-8.708983894643951e-02,0.0

 9	1.295805074321462e-01,0.000000000000000e+00
	4.334138092617678e+01,0.0
	-8.963381392629237e-02,0.0

 10	1.333656803372113e-01,0.000000000000000e+00
	4.334138029654689e+01,0.0
	-9.225210052561050e-02,0.0

 11	1.372614218316821e-01,0.000000000000000e+00
	4.334137962959566e+01,0.0
	-9.494686942593492e-02,0.0

 12	1.412709617318100e-01,0.000000000000000e+00
	4.334137892311084e+01,0.0
	-9.772035471352708e-02,0.0

 13	1.453976241999266e-01,0.000000000000000e+00
	4.334137817474910e+01,0.0
	-1.005748557312117e-01,0.0

 14	1.496448305003850e-01,0.000000000000000e+00
	4.334137738202818e+01,0.0
	-1.035127389842890e-01,0.0

 15	1.540161018360041e-01,0.000000000000000e+00
	4.334137654231871e+01,0.0
	-1.065364401020946e-01,0.0

 16	1.585150622673689e-01,0.000000000000000e+00
	4.334137565283545e+01,0.0
	-1.096484658568283e-01,0.0

 17	1.631454417174058e-01,0.000000000000000e+00
	4.334137470815908e+01,0.0
	-1.128513962413080e-01,0.0

 18	1.679110790637249e-01,0.000000000000000e+00
	4.334137371010235e+01,0.0
	-1.161478866074629e-01,0.0

 19	1.728159253212924e-01,0.000000000000000e+00
	4.334137265288582e+01,0.0
	-1.195406698670939e-01,0.0

 20	1.778640469180724e-01,0.000000000000000e+00
	4.334137153300284e+01,0.0
	-1.230325587570427e-01,0.0

 21	1.830596290663524e-01,0.000000000000000e+00
	4.334137034673883e+01,0.0
	-1.266264481704020e-01,0.0

 22	1.884069792325498e-01,0.000000000000000e+00
	4.334136909015911e+01,0.0
	-1.303253175557900e-01,0.0

 23	1.939105307083739e-01,0.000000000000000e+00
	4.334136775909574e+01,0.0
	-1.341322333866569e-01,0.0

 24	1.995748462863052e-01,0.000000000000000e+00
	4.334136634913371e+01,0.0
	-1.380503517026652e-01,0.0

 25	2.054046220424391e-01,0.000000000000000e+00
	4.334136485559637e+01,0.0
	-1.420829207252418e-01,0.0

 26	2.114046912298307e-01,0.000000000000000e+00
	4.334136327106086e+01,0.0
	-1.462332835494437e-01,0.0

 27	2.175800282855669e-01,0.000000000000000e+00
	4.334136159521756e+01,0.0
	-1.505048809144848e-01,0.0

 28	2.239357529548895e-01,0.000000000000000e+00
	4.334135982003900e+01,0.0
	-1.549012540549023e-01,0.0

 29	2.304771345357887e-01,0.000000000000000e+00
	4.334135793963710e+01,0.0
	-1.594260476351272e-01,0.0

 30	2.372095962475839e-01,0.000000000000000e+00
	4.334135594777482e+01,0.0
	-1.640830127695750e-01,0.0

 31	2.441387197271163e-01,0.000000000000000e+00
	4.334135383784546e+01,0.0
	-1.688760101308717e-01,0.0

 32	2.512702496562785e-01,0.000000000000000e+00
	4.334135160038169e+01,0.0
	-1.738090131487323e-01,0.0

 33	2.586100985247199e-01,0.000000000000000e+00
	4.334134923290832e+01,0.0
	-1.788861113022809e-01,0.0

 34	2.661643515316746e-01,0.000000000000000e+00
	4.334134672510382e+01,0.0
	-1.841115135081558e-01,0.0

 35	2.739392716309765e-01,0.000000000000000e+00
	4.334134406865022e+01,0.0
	-1.894895516076830e-01,0.0

 36	2.819413047234447e-01,0.000000000000000e+00
	4.334134125226753e+01,0.0
	-1.950246839555999e-01,0.0

 37	2.901770850009431e-01,0.000000000000000e+00
	4.334133827156039e+01,0.0
	-2.007214991135917e-01,0.0

 38	2.986534404465452e-01,0.000000000000000e+00
	4.334133511417340e+01,0.0
	-2.065847196512498e-01,0.0

 39	3.073773984953644e-01,0.000000000000000e+00
	4.334133176716509e+01,0.0
	-2.126192060580944e-01,0.0

 40	3.163561918607424e-01,0.000000000000000e+00
	4.334132822438023e+01,0.0
	-2.188299607696538e-01,0.0

 41	3.255972645306262e-01,0.000000000000000e+00
	4.334132447159914e+01,0.0
	-2.252221323106215e-01,0.0

 42	3.351082779391052e-01,0.000000000000000e+00
	4.334132049390564e+01,0.0
	-2.318010195590349e-01,0.0

 43	3.448971173182253e-01,0.000000000000000e+00
	4.334131628305273e+01,0.0
	-2.385720761347305e-01,0.0

 44	3.549718982353446e-01,0.000000000000000e+00
	4.334131182260501e+01,0.0
	-2.455409149153614e-01,0.0

 45	3.653409733214532e-01,0.000000000000000e+00
	4.334130709529924e+01,0.0
	-2.527133126842726e-01,0.0

 46	3.760129391960322e-01,0.000000000000000e+00
	4.334130209040227e+01,0.0
	-2.600952149137736e-01,0.0

 47	3.869966435941958e-01,0.000000000000000e+00
	4.334129678637619e+01,0.0
	-2.676927406873439e-01,0.0

 48	3.983011927020233e-01,0.000000000000000e+00
	4.334129117057512e+01,0.0
	-2.755121877657146e-01,0.0

 49	4.099359587061640e-01,0.000000000000000e+00
	4.334128521943511e+01,0.0
	-2.835600377998281e-01,0.0

 50	4.219105875639728e-01,0.000000000000000e+00
	4.334127891816409e+01,0.0
	-2.918429616961480e-01,0.0

 51	4.342350070006193e-01,0.000000000000000e+00
	4.334127224092481e+01,0.0
	-3.003678251374574e-01,0.0

 52	4.469194347398008e-01,0.000000000000000e+00
	4.334126516804815e+01,0.0
	-3.091416942648898e-01,0.0

 53	4.599743869748810e-01,0.000000000000000e+00
	4.334125767855299e+01,0.0
	-3.181718415248156e-01,0.0

 54	4.734106870874807e-01,0.000000000000000e+00
	4.334124974266139e+01,0.0
	-3.274657516857301e-01,0.0

 55	4.872394746207457e-01,0.000000000000000e+00
	4.334124133653014e+01,0.0
	-3.370311280304715e-01,0.0

 56	5.014722145147330e-01,0.000000000000000e+00
	4.334123243228760e+01,0.0
	-3.468758987279433e-01,0.0

 57	5.161207066115721e-01,0.000000000000000e+00
	4.334122300041031e+01,0.0
	-3.570082233901883e-01,0.0

 58	5.311970954382804e-01,0.000000000000000e+00
	4.334121301209395e+01,0.0
	-3.674364998199149e-01,0.0

 59	5.467138802753452e-01,0.000000000000000e+00
	4.334120242927393e+01,0.0
	-3.781693709536695e-01,0.0

 60	5.626839255194178e-01,0.000000000000000e+00
	4.334119121932928e+01,0.0
	-3.892157320070563e-01,0.0

 61	5.791204713487130e-01,0.000000000000000e+00
	4.334117934262152e+01,0.0
	-4.005847378266735e-01,0.0

 62	5.960371446999543e-01,0.000000000000000e+00
	4.334116676471621e+01,0.0
	-4.122858104558165e-01,0.0

 63	6.134479705659670e-01,0.000000000000000e+00
	4.334115344143874e+01,0.0
	-4.243286469188708e-01,0.0

 64	6.313673836232851e-01,0.000000000000000e+00
	4.334113932861185e+01,0.0
	-4.367232272318369e-01,0.0

 65	6.498102401994115e-01,0.000000000000000e+00
	4.334112437697128e+01,0.0
	-4.494798226444973e-01,0.0

 66	6.687918305896533e-01,0.000000000000000e+00
	4.334110854188654e+01,0.0
	-4.626090041215451e-01,0.0

 67	6.883278917337453e-01,0.000000000000000e+00
	4.334109176591384e+01,0.0
	-4.761216510683686e-01,0.0

 68	7.084346202627682e-01,0.000000000000000e+00
	4.334107399837379e+01,0.0
	-4.900289603101146e-01,0.0

 69	7.291286859271808e-01,0.000000000000000e+00
	4.334105517541537e+01,0.0
	-5.043424553291420e-01,0.0

 70	7.504272454170988e-01,0.000000000000000e+00
	4.334103523710338e+01,0.0
	-5.190739957702635e-01,0.0

 71	7.723479565862759e-01,0.000000000000000e+00
	4.334101411733584e+01,0.0
	-5.342357872195181e-01,0.0

 72	7.949089930915825e-01,0.000000000000000e+00
	4.334099174609388e+01,0.0
	-5.498403912652873e-01,0.0

 73	8.181290594601175e-01,0.000000000000000e+00
	4.334096804920974e+01,0.0
	-5.659007358492433e-01,0.0

 74	8.420274065964448e-01,0.000000000000000e+00
	4.334094294812100e+01,0.0
	-5.824301259153126e-01,0.0

 75	8.666238477428118e-01,0.000000000000000e+00
	4.334091635714132e+01,0.0
	-5.994422543648787e-01,0.0

 76	8.919387749055806e-01,0.000000000000000e+00
	4.334088819306072e+01,0.0
	-6.169512133272591e-01,0.0

 77	9.179931757614925e-01,0.000000000000000e+00
	4.334085835757061e+01,0.0
	-6.349715057528217e-01,0.0

 78	9.448086510577800e-01,0.000000000000000e+00
	4.334082675423744e+01,0.0
	-6.535180573398252e-01,0.0

 79	9.724074325205533e-01,0.000000000000000e+00
	4.334079327829919e+01,0.0
	-6.726062288019958e-01,0.0

 80	1.000812401286308e+00,0.000000000000000e+00
	4.334075781631837e+01,0.0
	-6.922518284874916e-01,0.0

 81	1.030047106871836e+00,0.000000000000000e+00
	4.334072025569047e+01,0.0
	-7.124711253589379e-01,0.0

 82	1.060135786698265e+00,0.000000000000000e+00
	4.334068046697196e+01,0.0
	-7.332808623428502e-01,0.0

 83	1.091103386185414e+00,0.000000000000000e+00
	4.334063832075077e+01,0.0
	-7.546982700609643e-01,0.0

 84	1.122975579433125e+00,0.000000000000000e+00
	4.334059367733390e+01,0.0
	-7.767410809512514e-01,0.0

 85	1.155778790506719e+00,0.000000000000000e+00
	4.334054638875392e+01,0.0
	-7.994275437906989e-01,0.0

 86	1.189540215344215e+00,0.000000000000000e+00
	4.334049629581024e+01,0.0
	-8.227764386298532e-01,0.0

 87	1.224287844303486e+00,0.000000000000000e+00
	4.334044323495741e+01,0.0
	-8.468070921507391e-01,0.0

 88	1.260050485368037e+00,0.000000000000000e+00
	4.334038703034878e+01,0.0
	-8.715393934581507e-01,0.0

 89	1.296857788030645e+00,0.000000000000000e+00
	4.334032749572376e+01,0.0
	-8.969938103168285e-01,0.0

 90	1.334740267874666e+00,0.000000000000000e+00
	4.334026443132264e+01,0.0
	-9.231914058454088e-01,0.0

 91	1.373729331873386e+00,0.000000000000000e+00
	4.334019763064104e+01,0.0
	-9.501538556797043e-01,0.0

 92	1.413857304428388e+00,0.000000000000000e+00
	4.334012686986293e+01,0.0
	-9.779034656158819e-01,0.0

 93	1.455157454168527e+00,0.000000000000000e+00
	4.334005191700469e+01,0.0
	-1.006463189747714e+00,0.0

 94	1.497664021531728e+00,0.000000000000000e+00
	4.333997252373315e+01,0.0
	-1.035856649108268e+00,0.0

 95	1.541412247152478e+00,0.000000000000000e+00
	4.333988842454489e+01,0.0
	-1.066108150829959e+00,0.0

 96	1.586438401078541e+00,0.000000000000000e+00
	4.333979934330404e+01,0.0
	-1.097242707835763e+00,0.0

 97	1.632779812841122e+00,0.000000000000000e+00
	4.333970498244590e+01,0.0
	-1.129286059072988e+00,0.0

 98	1.680474902403415e+00,0.000000000000000e+00
	4.333960503187833e+01,0.0
	-1.162264690304895e+00,0.0

 99	1.729563212013179e+00,0.000000000000000e+00
	4.333949915807374e+01,0.0
	-1.196205855470872e+00,0.0

 100	1.780085438985764e+00,0.000000000000000e+00
	4.333938701285217e+01,0.0
	-1.231137598630980e+00,0.0

 101	1.832083469444768e+00,0.000000000000000e+00
	4.333926822234826e+01,0.0
	-1.267088776505605e+00,0.0

 102	1.885600413048276e+00,0.000000000000000e+00
	4.333914239319286e+01,0.0
	-1.304089081626147e+00,0.0

 103	1.940680638729499e+00,0.000000000000000e+00
	4.333900911121574e+01,0.0
	-1.342169066108543e+00,0.0

 104	1.997369811481427e+00,0.000000000000000e+00
	4.333886793266507e+01,0.0
	-1.381360166062960e+00,0.0

 105	2.055714930215998e+00,0.000000000000000e+00
	4.333871839015991e+01,0.0
	-1.421694726654810e+00,0.0

 106	2.115764366729172e+00,0.000000000000000e+00
	4.333855999115058e+01,0.0
	-1.463206027828784e+00,0.0

 107	2.177567905804208e+00,0.000000000000000e+00
	4.333839220641255e+01,0.0
	-1.505928310708806e+00,0.0

 108	2.241176786486402e+00,0.000000000000000e+00
	4.333821448560344e+01,0.0
	-1.549896804690166e+00,0.0

 109	2.306643744563500e+00,0.000000000000000e+00
	4.333802623568432e+01,0.0
	-1.595147755231215e+00,0.0

 110	2.374023056286999e+00,0.000000000000000e+00
	4.333782683873736e+01,0.0
	-1.641718452363841e+00,0.0

 111	2.443370583370600e+00,0.000000000000000e+00
	4.333761563016685e+01,0.0
	-1.689647259927972e+00,0.0

 112	2.514743819303100e+00,0.000000000000000e+00
	4.333739191628385e+01,0.0
	-1.738973645549147e+00,0.0

 113	2.588201937014134e+00,0.000000000000000e+00
	4.333715495226060e+01,0.0
	-1.789738211363108e+00,0.0

 114	2.663805837932280e+00,0.000000000000000e+00
	4.333690395698557e+01,0.0
	-1.841982725505514e+00,0.0

 115	2.741618202476195e+00,0.000000000000000e+00
	4.333663809814907e+01,0.0
	-1.895750154370371e+00,0.0

 116	2.821703542020651e+00,0.000000000000000e+00
	4.333635649939976e+01,0.0
	-1.951084695651659e+00,0.0

 117	2.904128252380546e+00,0.000000000000000e+00
	4.333605823006003e+01,0.0
	-2.008031812172502e+00,0.0

 118	2.988960668857239e+00,0.000000000000000e+00
	4.333574230208068e+01,0.0
	-2.066638266511817e+00,0.0

 119	3.076271122892837e+00,0.000000000000000e+00
	4.333540767175661e+01,0.0
	-2.126952156434484e+00,0.0

 120	3.166132000379413e+00,0.000000000000000e+00
	4.333505323384842e+01,0.0
	-2.189022951128536e+00,0.0

 121	3.258617801671489e+00,0.000000000000000e+00
	4.333467781797535e+01,0.0
	-2.252901528253805e+00,0.0

 122	3.353805203351550e+00,0.000000000000000e+00
	4.333428018726818e+01,0.0
	-2.318640211803828e+00,0.0

 123	3.451773121799781e+00,0.000000000000000e+00
	4.333385902445666e+01,0.0
	-2.386292810778860e+00,0.0

 124	3.552602778620737e+00,0.000000000000000e+00
	4.333341294241344e+01,0.0
	-2.455914658672596e+00,0.0

 125	3.656377767981200e+00,0.000000000000000e+00
	4.333294046729324e+01,0.0
	-2.527562653761133e+00,0.0

 126	3.763184125915030e+00,0.000000000000000e+00
	4.333244004363267e+01,0.0
	-2.601295300193537e+00,0.0

 127	3.873110401652480e+00,0.000000000000000e+00
	4.333191001942404e+01,0.0
	-2.677172749868050e+00,0.0

 128	3.986247731033119e+00,0.000000000000000e+00
	4.333134865065109e+01,0.0
	-2.755256845086271e+00,0.0

 129	4.102689912063202e+00,0.000000000000000e+00
	4.333075408329852e+01,0.0
	-2.835611161962111e+00,0.0

 130	4.222533482680160e+00,0.000000000000000e+00
	4.333012436219765e+01,0.0
	-2.918301054572328e+00,0.0

 131	4.345877800788659e+00,0.000000000000000e+00
	4.332945741237343e+01,0.0
	-3.003393699814891e+00,0.0

 132	4.472825126634588e+00,0.000000000000000e+00
	4.332875104225346e+01,0.0
	-3.090958142953171e+00,0.0

 133	4.603480707585274e+00,0.000000000000000e+00
	4.332800292674740e+01,0.0
	-3.181065343803799e+00,0.0

 134	4.737952865386218e+00,0.000000000000000e+00
	4.332721060967969e+01,0.0
	-3.273788223533998e+00,0.0

 135	4.876353085966668e+00,0.000000000000000e+00
	4.332637148111304e+01,0.0
	-3.369201712013197e+00,0.0

 136	5.018796111868517e+00,0.000000000000000e+00
	4.332548279373340e+01,0.0
	-3.467382795676640e+00,0.0

 137	5.165400037375127e+00,0.000000000000000e+00
	4.332454162445255e+01,0.0
	-3.568410565821388e+00,0.0

 138	5.316286406418967e+00,0.000000000000000e+00
	4.332354488983828e+01,0.0
	-3.672366267285516e+00,0.0

 139	5.471580313349224e+00,0.000000000000000e+00
	4.332248932399526e+01,0.0
	-3.779333347413655e+00,0.0

 140	5.631410506642937e+00,0.000000000000000e+00
	4.332137146824926e+01,0.0
	-3.889397505229385e+00,0.0

 141	5.795909495645631e+00,0.000000000000000e+00
	4.332018766766932e+01,0.0
	-4.002646740714095e+00,0.0

 142	5.965213660429949e+00,0.000000000000000e+00
	4.331893404477163e+01,0.0
	-4.119171404074084e+00,0.0

 143	6.139463364863369e+00,0.000000000000000e+00
	4.331760650963051e+01,0.0
	-4.239064244885125e+00,0.0

 144	6.318803072978726e+00,0.000000000000000e+00
	4.331620072735872e+01,0.0
	-4.362420460958235e+00,0.0

 145	6.503381468744045e+00,0.000000000000000e+00
	4.331471211452523e+01,0.0
	-4.489337746790045e+00,0.0

 146	6.693351579330955e+00,0.000000000000000e+00
	4.331313581756702e+01,0.0
	-4.619916341417271e+00,0.0

 147	6.888870901983903e+00,0.000000000000000e+00
	4.331146671019540e+01,0.0
	-4.754259075497485e+00,0.0

 148	7.090101534595336e+00,0.000000000000000e+00
	4.330969936532037e+01,0.0
	-4.892471417398488e+00,0.0

 149	7.297210310095109e+00,0.000000000000000e+00
	4.330782804342961e+01,0.0
	-5.034661518080344e+00,0.0

 150	7.510368934765550e+00,0.000000000000000e+00
	4.330584668010226e+01,0.0
	-5.180940254516793e+00,0.0

 151	7.729754130596826e+00,0.000000000000000e+00
	4.330374885533736e+01,0.0
	-5.331421271377641e+00,0.0

 152	7.955547781800666e+00,0.000000000000000e+00
	4.330152778416210e+01,0.0
	-5.486221020684733e+00,0.0

 153	8.187937085603876e+00,0.000000000000000e+00
	4.329917629885330e+01,0.0
	-5.645458799106541e+00,0.0

 154	8.427114707446691e+00,0.000000000000000e+00
	4.329668681779527e+01,0.0
	-5.809256782532811e+00,0.0

 155	8.673278940714619e+00,0.000000000000000e+00
	4.329405132562430e+01,0.0
	-5.977740057548607e+00,0.0

 156	8.926633871136204e+00,0.000000000000000e+00
	4.329126135721345e+01,0.0
	-6.151036649383347e+00,0.0

 157	9.187389545983017e+00,0.000000000000000e+00
	4.328830796817609e+01,0.0
	-6.329277545869845e+00,0.0

 158	9.455762148212127e+00,0.000000000000000e+00
	4.328518170172559e+01,0.0
	-6.512596716918257e+00,0.0

 159	9.731974175695468e+00,0.000000000000000e+00
	4.328187258148116e+01,0.0
	-6.701131128976838e+00,0.0

 160	1.001625462568464e+01,0.000000000000000e+00
	4.327837005858392e+01,0.0
	-6.895020753869772e+00,0.0

 161	1.030883918466415e+01,0.000000000000000e+00
	4.327466300197148e+01,0.0
	-7.094408571415211e+00,0.0

 162	1.060997042375038e+01,0.000000000000000e+00
	4.327073965524104e+01,0.0
	-7.299440565115738e+00,0.0

 163	1.091989799979844e+01,0.000000000000000e+00
	4.326658761438908e+01,0.0
	-7.510265710211430e+00,0.0

 164	1.123887886238347e+01,0.000000000000000e+00
	4.326219378442948e+01,0.0
	-7.727035953293312e+00,0.0

 165	1.156717746682812e+01,0.000000000000000e+00
	4.325754435437184e+01,0.0
	-7.949906182651417e+00,0.0

 166	1.190506599345274e+01,0.000000000000000e+00
	4.325262474857148e+01,0.0
	-8.179034188437811e+00,0.0

 167	1.225282457323008e+01,0.000000000000000e+00
	4.324741960628803e+01,0.0
	-8.414580611704093e+00,0.0

 168	1.261074152003161e+01,0.000000000000000e+00
	4.324191272031885e+01,0.0
	-8.656708881254628e+00,0.0

 169	1.297911356965797e+01,0.000000000000000e+00
	4.323608702112411e+01,0.0
	-8.905585137263072e+00,0.0

 170	1.335824612585172e+01,0.000000000000000e+00
	4.322992451263731e+01,0.0
	-9.161378140447257e+00,0.0

 171	1.374845351349637e+01,0.000000000000000e+00
	4.322340624126015e+01,0.0
	-9.424259165613849e+00,0.0

 172	1.415005923921160e+01,0.000000000000000e+00
	4.321651225363638e+01,0.0
	-9.694401878254581e+00,0.0

 173	1.456339625956072e+01,0.000000000000000e+00
	4.320922153831617e+01,0.0
	-9.971982192825104e+00,0.0

 174	1.498880725709275e+01,0.000000000000000e+00
	4.320151199087817e+01,0.0
	-1.025717811129506e+01,0.0

 175	1.542664492444793e+01,0.000000000000000e+00
	4.319336035814950e+01,0.0
	-1.055016954044676e+01,0.0

 176	1.587727225676223e+01,0.000000000000000e+00
	4.318474218878245e+01,0.0
	-1.085113808637570e+01,0.0

 177	1.634106285261330e+01,0.000000000000000e+00
	4.317563179030826e+01,0.0
	-1.116026682457395e+01,0.0

 178	1.681840122375734e+01,0.000000000000000e+00
	4.316600217059218e+01,0.0
	-1.147774004390961e+01,0.0

 179	1.730968311391367e+01,0.000000000000000e+00
	4.315582498607939e+01,0.0
	-1.180374296279710e+01,0.0

 180	1.781531582686132e+01,0.000000000000000e+00
	4.314507049702886e+01,0.0
	-1.213846141580358e+01,0.0

 181	1.833571856411967e+01,0.000000000000000e+00
	4.313370750280446e+01,0.0
	-1.248208150889273e+01,0.0

 182	1.887132277249297e+01,0.000000000000000e+00
	4.312170330192401e+01,0.0
	-1.283478924154272e+01,0.0

 183	1.942257250176714e+01,0.000000000000000e+00
	4.310902363518983e+01,0.0
	-1.319677009392193e+01,0.0

 184	1.998992477285505e+01,0.000000000000000e+00
	4.309563263198535e+01,0.0
	-1.356820857736969e+01,0.0

 185	2.057384995669586e+01,0.000000000000000e+00
	4.308149276504906e+01,0.0
	-1.394928774646575e+01,0.0

 186	2.117483216422225e+01,0.000000000000000e+00
	4.306656479439028e+01,0.0
	-1.434018867102376e+01,0.0

 187	2.179336964771904e+01,0.000000000000000e+00
	4.305080773043487e+01,0.0
	-1.474108986648020e+01,0.0

