Title: ** sch_path: /home/designer/shared/design/cclna/testbench_ccl.sch
Date: Thu Jan 22 03:15:44  2026
Command: ngspice-44.2, Build Tue Dec  9 03:02:56 UTC 2025
Plotname: AC Analysis
Flags: complex
No. Variables: 3
No. Points: 121
Variables:
	0	frequency	frequency grid=3
	1	vdb(vout)	decibel
	2	vp(vout)	phase
Values:
 0	1.000000000000000e-01,0.000000000000000e+00
	-4.256469051314508e+01,0.0
	8.903053222572605e+01,0.0

 1	1.122994660920052e-01,0.000000000000000e+00
	-4.155746335537516e+01,0.0
	8.891132128556868e+01,0.0

 2	1.261117008454942e-01,0.000000000000000e+00
	-4.055032145938999e+01,0.0
	8.877745986065698e+01,0.0

 3	1.416227667290368e-01,0.000000000000000e+00
	-3.954328706616626e+01,0.0
	8.862715093747185e+01,0.0

 4	1.590416109014343e-01,0.000000000000000e+00
	-3.853638821101097e+01,0.0
	8.845837852343294e+01,0.0

 5	1.786028799064350e-01,0.000000000000000e+00
	-3.752966022879992e+01,0.0
	8.826888156209857e+01,0.0

 6	2.005700805598717e-01,0.000000000000000e+00
	-3.652314764769470e+01,0.0
	8.805612499140864e+01,0.0

 7	2.252391296090407e-01,0.000000000000000e+00
	-3.551690657008955e+01,0.0
	8.781726773839208e+01,0.0

 8	2.529423399812322e-01,0.000000000000000e+00
	-3.451100766376886e+01,0.0
	8.754912747751992e+01,0.0

 9	2.840528973195484e-01,0.000000000000000e+00
	-3.350553991587967e+01,0.0
	8.724814204155346e+01,0.0

 10	3.189898871087245e-01,0.000000000000000e+00
	-3.250061533824787e+01,0.0
	8.691032747597997e+01,0.0

 11	3.582239401105877e-01,0.000000000000000e+00
	-3.149637485565608e+01,0.0
	8.653123288848590e+01,0.0

 12	4.022835721579344e-01,0.000000000000000e+00
	-3.049407409906273e+01,0.0
	8.610621723507059e+01,0.0

 13	4.517623037092067e-01,0.000000000000000e+00
	-2.949177846138217e+01,0.0
	8.562914038609033e+01,0.0

 14	5.073266550703821e-01,0.000000000000000e+00
	-2.849084605060846e+01,0.0
	8.509414554414333e+01,0.0

 15	5.697251249864679e-01,0.000000000000000e+00
	-2.749162711585247e+01,0.0
	8.449442153931014e+01,0.0

 16	6.397982735518126e-01,0.000000000000000e+00
	-2.649456004839497e+01,0.0
	8.382244652125050e+01,0.0

 17	7.184900452645524e-01,0.000000000000000e+00
	-2.550019249851237e+01,0.0
	8.306995114706274e+01,0.0

 18	8.068604847562987e-01,0.000000000000000e+00
	-2.450920694153302e+01,0.0
	8.222789657738437e+01,0.0

 19	9.061000164886883e-01,0.000000000000000e+00
	-2.352245127982210e+01,0.0
	8.128647588231948e+01,0.0

 20	1.017545480776368e+00,0.000000000000000e+00
	-2.254204521561623e+01,0.0
	8.023597606926170e+01,0.0

 21	1.142698142155189e+00,0.000000000000000e+00
	-2.156713830724102e+01,0.0
	7.906366509836863e+01,0.0

 22	1.283243912683539e+00,0.000000000000000e+00
	-2.060038546022938e+01,0.0
	7.775860550213000e+01,0.0

 23	1.441076062601772e+00,0.000000000000000e+00
	-1.964477005794852e+01,0.0
	7.631005782337384e+01,0.0

 24	1.618320724281480e+00,0.000000000000000e+00
	-1.870048422818391e+01,0.0
	7.470403401163159e+01,0.0

 25	1.817365533024373e+00,0.000000000000000e+00
	-1.777239705370034e+01,0.0
	7.293190852406535e+01,0.0

 26	2.040891790526495e+00,0.000000000000000e+00
	-1.686268289904491e+01,0.0
	7.098272635067667e+01,0.0

 27	2.291910584276819e+00,0.000000000000000e+00
	-1.597507384704311e+01,0.0
	6.884887886619209e+01,0.0

 28	2.573803349449024e+00,0.000000000000000e+00
	-1.511378665858510e+01,0.0
	6.652594899327812e+01,0.0

 29	2.890367419689400e+00,0.000000000000000e+00
	-1.428346324990760e+01,0.0
	6.401384804145238e+01,0.0

 30	3.245867180408463e+00,0.000000000000000e+00
	-1.349000794954928e+01,0.0
	6.132052835834916e+01,0.0

 31	3.645091513654327e+00,0.000000000000000e+00
	-1.273653839528536e+01,0.0
	5.845307082810243e+01,0.0

 32	4.093418308398800e+00,0.000000000000000e+00
	-1.202984151088329e+01,0.0
	5.543600265051243e+01,0.0

 33	4.596886905244242e+00,0.000000000000000e+00
	-1.137340194953225e+01,0.0
	5.229335971080438e+01,0.0

 34	5.162279451442584e+00,0.000000000000000e+00
	-1.077008408056377e+01,0.0
	4.905512568597003e+01,0.0

 35	5.797212262147315e+00,0.000000000000000e+00
	-1.022402366713523e+01,0.0
	4.576703192579328e+01,0.0

 36	6.510238418611691e+00,0.000000000000000e+00
	-9.735543146459682e+00,0.0
	4.246818220886560e+01,0.0

 37	7.310962985417531e+00,0.000000000000000e+00
	-9.303732412456224e+00,0.0
	3.919795507229258e+01,0.0

 38	8.210172398808011e+00,0.000000000000000e+00
	-8.928027734465743e+00,0.0
	3.600507868363177e+01,0.0

 39	9.219979769094570e+00,0.000000000000000e+00
	-8.604262142897547e+00,0.0
	3.291884606838705e+01,0.0

 40	1.035398805448409e+01,0.000000000000000e+00
	-8.328925423966997e+00,0.0
	2.997358670754064e+01,0.0

 41	1.162747330441563e+01,0.000000000000000e+00
	-8.097262866331024e+00,0.0
	2.719248833848518e+01,0.0

 42	1.305759044084919e+01,0.000000000000000e+00
	-7.904200111209919e+00,0.0
	2.459115924908468e+01,0.0

 43	1.466360434955434e+01,0.000000000000000e+00
	-7.744647774782988e+00,0.0
	2.217810494377362e+01,0.0

 44	1.646714939439358e+01,0.000000000000000e+00
	-7.613555282251646e+00,0.0
	1.995288235244044e+01,0.0

 45	1.849252085047685e+01,0.000000000000000e+00
	-7.506836947631996e+00,0.0
	1.791863981588673e+01,0.0

 46	2.076700218203824e+01,0.000000000000000e+00
	-7.420138577089007e+00,0.0
	1.606359853106229e+01,0.0

 47	2.332123257374401e+01,0.000000000000000e+00
	-7.350126229353870e+00,0.0
	1.438144574905758e+01,0.0

 48	2.618961966638932e+01,0.000000000000000e+00
	-7.293867030152590e+00,0.0
	1.286331249852557e+01,0.0

 49	2.941080305688200e+01,0.000000000000000e+00
	-7.248647078284507e+00,0.0
	1.149343409438920e+01,0.0

 50	3.302817480624962e+01,0.000000000000000e+00
	-7.212448549849901e+00,0.0
	1.026190302435446e+01,0.0

 51	3.709046396735250e+01,0.000000000000000e+00
	-7.183526473004522e+00,0.0
	9.156792373374048e+00,0.0

 52	4.165239300638442e+01,0.000000000000000e+00
	-7.160453318927777e+00,0.0
	8.166584897227949e+00,0.0

 53	4.677541496071341e+01,0.000000000000000e+00
	-7.142068663636532e+00,0.0
	7.280365280886874e+00,0.0

 54	5.252854126320108e+01,0.000000000000000e+00
	-7.127433985001526e+00,0.0
	6.487932129435555e+00,0.0

 55	5.898927138449345e+01,0.000000000000000e+00
	-7.115793288458924e+00,0.0
	5.779851491096873e+00,0.0

 56	6.624463681635014e+01,0.000000000000000e+00
	-7.106539556784338e+00,0.0
	5.147469269547655e+00,0.0

 57	7.439237345934910e+01,0.000000000000000e+00
	-7.099186625600278e+00,0.0
	4.582895834549510e+00,0.0

 58	8.354223820801961e+01,0.000000000000000e+00
	-7.093345895860727e+00,0.0
	4.078972732310665e+00,0.0

 59	9.381748746891718e+01,0.000000000000000e+00
	-7.088707231729381e+00,0.0
	3.629228671682004e+00,0.0

 60	1.053565375285279e+02,0.000000000000000e+00
	-7.085023404113961e+00,0.0
	3.227829859804756e+00,0.0

 61	1.183148291375599e+02,0.000000000000000e+00
	-7.082097491560698e+00,0.0
	2.869528182341960e+00,0.0

 62	1.328669214291479e+02,0.000000000000000e+00
	-7.079772719136292e+00,0.0
	2.549609563826421e+00,0.0

 63	1.492088433778171e+02,0.000000000000000e+00
	-7.077924289122331e+00,0.0
	2.263844007539866e+00,0.0

 64	1.675607344753448e+02,0.000000000000000e+00
	-7.076452827463722e+00,0.0
	2.008438221683017e+00,0.0

 65	1.881698101956547e+02,0.000000000000000e+00
	-7.075277428101748e+00,0.0
	1.779704349503010e+00,0.0

 66	2.113136921960598e+02,0.000000000000000e+00
	-7.074339973974996e+00,0.0
	1.575453847915767e+00,0.0

 67	2.373041481154783e+02,0.000000000000000e+00
	-7.073583614127066e+00,0.0
	1.391862364551337e+00,0.0

 68	2.664912913478634e+02,0.000000000000000e+00
	-7.072971725127836e+00,0.0
	1.227240615634706e+00,0.0

 69	2.992682973653406e+02,0.000000000000000e+00
	-7.072469195192063e+00,0.0
	1.078944021711241e+00,0.0

 70	3.360767001239119e+02,0.000000000000000e+00
	-7.072049922133806e+00,0.0
	9.452034703144044e-01,0.0

 71	3.774123398987824e+02,0.000000000000000e+00
	-7.071691210764283e+00,0.0
	8.242163425954545e-01,0.0

 72	4.238320426716765e+02,0.000000000000000e+00
	-7.071373650405626e+00,0.0
	7.143502813930386e-01,0.0

 73	4.759611210471323e+02,0.000000000000000e+00
	-7.071079738248525e+00,0.0
	6.140077409541470e-01,0.0

 74	5.345017977414520e+02,0.000000000000000e+00
	-7.070794331545887e+00,0.0
	5.220727313561174e-01,0.0

 75	6.002426651158200e+02,0.000000000000000e+00
	-7.070501172013552e+00,0.0
	4.369918297977568e-01,0.0

 76	6.740693081814885e+02,0.000000000000000e+00
	-7.070185120715021e+00,0.0
	3.578313724562749e-01,0.0

 77	7.569762341778846e+02,0.000000000000000e+00
	-7.069828852891905e+00,0.0
	2.833646807522387e-01,0.0

 78	8.500802694251313e+02,0.000000000000000e+00
	-7.069413930048878e+00,0.0
	2.128068951435511e-01,0.0

 79	9.546356039179017e+02,0.000000000000000e+00
	-7.068917512478326e+00,0.0
	1.448714129041527e-01,0.0

 80	1.072050686323993e+03,0.000000000000000e+00
	-7.068314157015355e+00,0.0
	7.893520721620599e-02,0.0

 81	1.203907196977521e+03,0.000000000000000e+00
	-7.067571551670236e+00,0.0
	1.381243182500934e-02,0.0

 82	1.351981354448982e+03,0.000000000000000e+00
	-7.066651367445819e+00,0.0
	-5.130388722377296e-02,0.0

 83	1.518267842709667e+03,0.000000000000000e+00
	-7.065506157864759e+00,0.0
	-1.173993018068017e-01,0.0

 84	1.705006681209561e+03,0.000000000000000e+00
	-7.064077507816976e+00,0.0
	-1.855589376926850e-01,0.0

 85	1.914713399831353e+03,0.000000000000000e+00
	-7.062294241874651e+00,0.0
	-2.567939126328286e-01,0.0

 86	2.150212925202690e+03,0.000000000000000e+00
	-7.060069071520909e+00,0.0
	-3.323232878711416e-01,0.0

 87	2.414677634843908e+03,0.000000000000000e+00
	-7.057296052943189e+00,0.0
	-4.135014075899731e-01,0.0

 88	2.711670091772767e+03,0.000000000000000e+00
	-7.053847630675268e+00,0.0
	-5.018945656237208e-01,0.0

 89	3.045191035237404e+03,0.000000000000000e+00
	-7.049572093493572e+00,0.0
	-5.993390406176168e-01,0.0

 90	3.419733274053211e+03,0.000000000000000e+00
	-7.044292131296977e+00,0.0
	-7.079704039581481e-01,0.0

 91	3.840342208532404e+03,0.000000000000000e+00
	-7.037804025883217e+00,0.0
	-8.305033066719634e-01,0.0

 92	4.312683796287810e+03,0.000000000000000e+00
	-7.029882038582179e+00,0.0
	-9.700563700268823e-01,0.0

 93	4.843120877467631e+03,0.000000000000000e+00
	-7.020284468243298e+00,0.0
	-1.130594349908593e+00,0.0

 94	5.438798887586586e+03,0.000000000000000e+00
	-7.008768484044009e+00,0.0
	-1.316921868464791e+00,0.0

 95	6.107742112577653e+03,0.000000000000000e+00
	-6.995112841704945e+00,0.0
	-1.534837918104195e+00,0.0

 96	6.858961782701263e+03,0.000000000000000e+00
	-6.979150271217640e+00,0.0
	-1.791324531649279e+00,0.0

 97	7.702577461428199e+03,0.000000000000000e+00
	-6.960810744084677e+00,0.0
	-2.094587653174800e+00,0.0

 98	8.649953364506993e+03,0.000000000000000e+00
	-6.940172454800411e+00,0.0
	-2.454039229554870e+00,0.0

 99	9.713851445548793e+03,0.000000000000000e+00
	-6.917514559756156e+00,0.0
	-2.880173897855283e+00,0.0

 100	1.090860331032182e+04,0.000000000000000e+00
	-6.893362658104278e+00,0.0
	-3.384268019919972e+00,0.0

 101	1.225030327558621e+04,0.000000000000000e+00
	-6.868515107878466e+00,0.0
	-3.977967193680724e+00,0.0

 102	1.375702517313474e+04,0.000000000000000e+00
	-6.844040260553199e+00,0.0
	-4.672838606363339e+00,0.0

 103	1.544906581957306e+04,0.000000000000000e+00
	-6.821241670452962e+00,0.0
	-5.479953400762330e+00,0.0

 104	1.734921843158301e+04,0.000000000000000e+00
	-6.801597730779024e+00,0.0
	-6.409654006504988e+00,0.0

 105	1.948307966980348e+04,0.000000000000000e+00
	-6.786692713788707e+00,0.0
	-7.471548540962990e+00,0.0

 106	2.187939444746931e+04,0.000000000000000e+00
	-6.778160410735873e+00,0.0
	-8.674773480142298e+00,0.0

 107	2.457044314867186e+04,0.000000000000000e+00
	-6.777659615017045e+00,0.0
	-1.002840158996503e+01,0.0

 108	2.759247647239817e+04,0.000000000000000e+00
	-6.786890445892382e+00,0.0
	-1.154193327299376e+01,0.0

 109	3.098620376006529e+04,0.000000000000000e+00
	-6.807650786215814e+00,0.0
	-1.322564201442240e+01,0.0

 110	3.479734138473416e+04,0.000000000000000e+00
	-6.841921497906061e+00,0.0
	-1.509075075535688e+01,0.0

 111	3.907722858926882e+04,0.000000000000000e+00
	-6.891965780581230e+00,0.0
	-1.714932024257669e+01,0.0

 112	4.388351906930130e+04,0.000000000000000e+00
	-6.960426516464358e+00,0.0
	-1.941385410966893e+01,0.0

 113	4.928095761720864e+04,0.000000000000000e+00
	-7.050406509933883e+00,0.0
	-2.189660467162586e+01,0.0

 114	5.534225228915266e+04,0.000000000000000e+00
	-7.165516939825243e+00,0.0
	-2.460863938578001e+01,0.0

 115	6.214905384400896e+04,0.000000000000000e+00
	-7.309879563356803e+00,0.0
	-2.755868657355498e+01,0.0

 116	6.979305564805488e+04,0.000000000000000e+00
	-7.488067840071926e+00,0.0
	-3.075185459028104e+01,0.0

 117	7.837722886206170e+04,0.000000000000000e+00
	-7.704973875497732e+00,0.0
	-3.418836495629947e+01,0.0

 118	8.801720954980429e+04,0.000000000000000e+00
	-7.965594021299709e+00,0.0
	-3.786246896059420e+01,0.0

 119	9.884285639351163e+04,0.000000000000000e+00
	-8.274737495671227e+00,0.0
	-4.176177876926764e+01,0.0

 120	1.110000000000010e+05,0.000000000000000e+00
	-8.636679487771485e+00,0.0
	-4.586726465952427e+01,0.0

Title: ** sch_path: /home/designer/shared/design/cclna/testbench_ccl.sch
Date: Thu Jan 22 03:15:44  2026
Command: ngspice-44.2, Build Tue Dec  9 03:02:56 UTC 2025
Plotname: Operating Point
Flags: real
No. Variables: 576
No. Points: 1
Variables:
	0	v(vin-)	voltage
	1	i(@n.xm2.nsg13_lv_pmos[ids])	current
	2	i(@n.xm3.nsg13_lv_pmos[ids])	current
	3	i(e1)	current
	4	i(e2)	current
	5	v(n.x1.xm3.nsg13_lv_pmos#bd)	voltage
	6	v(n.x1.xm3.nsg13_lv_pmos#bi)	voltage
	7	v(n.x1.xm3.nsg13_lv_pmos#bp)	voltage
	8	v(n.x1.xm3.nsg13_lv_pmos#bs)	voltage
	9	v(n.x1.xm3.nsg13_lv_pmos#di)	voltage
	10	v(n.x1.xm3.nsg13_lv_pmos#gp)	voltage
	11	v(n.x1.xm3.nsg13_lv_pmos#int1)	voltage
	12	v(n.x1.xm3.nsg13_lv_pmos#int2)	voltage
	13	v(n.x1.xm3.nsg13_lv_pmos#int3)	voltage
	14	v(n.x1.xm3.nsg13_lv_pmos#int4)	voltage
	15	v(n.x1.xm3.nsg13_lv_pmos#int5)	voltage
	16	v(n.x1.xm3.nsg13_lv_pmos#int6)	voltage
	17	v(n.x1.xm3.nsg13_lv_pmos#int7)	voltage
	18	v(n.x1.xm3.nsg13_lv_pmos#int8)	voltage
	19	v(n.x1.xm3.nsg13_lv_pmos#int9)	voltage
	20	v(n.x1.xm3.nsg13_lv_pmos#noi)	voltage
	21	v(n.x1.xm3.nsg13_lv_pmos#si)	voltage
	22	v(n.x1.xm3.nsg13_lv_pmos#flow(noii))	voltage
	23	v(n.x1.xm3.nsg13_lv_pmos#flow(res1))	voltage
	24	v(n.x1.xm3.nsg13_lv_pmos#flow(res2))	voltage
	25	v(n.x1.xm3.nsg13_lv_pmos#flow(res3))	voltage
	26	v(n.x1.xm3.nsg13_lv_pmos#flow(res4))	voltage
	27	v(n.x1.xm3.nsg13_lv_pmos#flow(res5))	voltage
	28	v(n.x1.xm3.nsg13_lv_pmos#flow(res6))	voltage
	29	v(n.x1.xm3.nsg13_lv_pmos#flow(res7))	voltage
	30	v(n.x1.xm3.nsg13_lv_pmos#flow(res8))	voltage
	31	v(n.x1.xm3.nsg13_lv_pmos#flow(res9))	voltage
	32	v(n.x1.xm3.nsg13_lv_pmos#flow(spline1))	voltage
	33	v(n.x1.xm3.nsg13_lv_pmos#flow(spline2))	voltage
	34	v(n.x1.xm3.nsg13_lv_pmos#flow(spline3))	voltage
	35	v(n.x1.xm3.nsg13_lv_pmos#flow(spline4))	voltage
	36	v(n.x1.xm3.nsg13_lv_pmos#flow(spline5))	voltage
	37	v(n.x1.xm3.nsg13_lv_pmos#flow(spline6))	voltage
	38	v(n.x1.xm3.nsg13_lv_pmos#flow(spline7))	voltage
	39	v(n.x1.xm3.nsg13_lv_pmos#flow(spline8))	voltage
	40	v(n.x1.xm3.nsg13_lv_pmos#flow(spline9))	voltage
	41	v(n.x1.xm3.nsg13_lv_pmos#implicit_equation_0)	voltage
	42	v(n.x1.xm3.nsg13_lv_pmos#implicit_equation_1)	voltage
	43	v(n.x1.xm3.nsg13_lv_pmos#implicit_equation_2)	voltage
	44	v(n.x1.xm4.nsg13_lv_pmos#bd)	voltage
	45	v(n.x1.xm4.nsg13_lv_pmos#bi)	voltage
	46	v(n.x1.xm4.nsg13_lv_pmos#bp)	voltage
	47	v(n.x1.xm4.nsg13_lv_pmos#bs)	voltage
	48	v(n.x1.xm4.nsg13_lv_pmos#di)	voltage
	49	v(n.x1.xm4.nsg13_lv_pmos#gp)	voltage
	50	v(n.x1.xm4.nsg13_lv_pmos#int1)	voltage
	51	v(n.x1.xm4.nsg13_lv_pmos#int2)	voltage
	52	v(n.x1.xm4.nsg13_lv_pmos#int3)	voltage
	53	v(n.x1.xm4.nsg13_lv_pmos#int4)	voltage
	54	v(n.x1.xm4.nsg13_lv_pmos#int5)	voltage
	55	v(n.x1.xm4.nsg13_lv_pmos#int6)	voltage
	56	v(n.x1.xm4.nsg13_lv_pmos#int7)	voltage
	57	v(n.x1.xm4.nsg13_lv_pmos#int8)	voltage
	58	v(n.x1.xm4.nsg13_lv_pmos#int9)	voltage
	59	v(n.x1.xm4.nsg13_lv_pmos#noi)	voltage
	60	v(n.x1.xm4.nsg13_lv_pmos#si)	voltage
	61	v(n.x1.xm4.nsg13_lv_pmos#flow(noii))	voltage
	62	v(n.x1.xm4.nsg13_lv_pmos#flow(res1))	voltage
	63	v(n.x1.xm4.nsg13_lv_pmos#flow(res2))	voltage
	64	v(n.x1.xm4.nsg13_lv_pmos#flow(res3))	voltage
	65	v(n.x1.xm4.nsg13_lv_pmos#flow(res4))	voltage
	66	v(n.x1.xm4.nsg13_lv_pmos#flow(res5))	voltage
	67	v(n.x1.xm4.nsg13_lv_pmos#flow(res6))	voltage
	68	v(n.x1.xm4.nsg13_lv_pmos#flow(res7))	voltage
	69	v(n.x1.xm4.nsg13_lv_pmos#flow(res8))	voltage
	70	v(n.x1.xm4.nsg13_lv_pmos#flow(res9))	voltage
	71	v(n.x1.xm4.nsg13_lv_pmos#flow(spline1))	voltage
	72	v(n.x1.xm4.nsg13_lv_pmos#flow(spline2))	voltage
	73	v(n.x1.xm4.nsg13_lv_pmos#flow(spline3))	voltage
	74	v(n.x1.xm4.nsg13_lv_pmos#flow(spline4))	voltage
	75	v(n.x1.xm4.nsg13_lv_pmos#flow(spline5))	voltage
	76	v(n.x1.xm4.nsg13_lv_pmos#flow(spline6))	voltage
	77	v(n.x1.xm4.nsg13_lv_pmos#flow(spline7))	voltage
	78	v(n.x1.xm4.nsg13_lv_pmos#flow(spline8))	voltage
	79	v(n.x1.xm4.nsg13_lv_pmos#flow(spline9))	voltage
	80	v(n.x1.xm4.nsg13_lv_pmos#implicit_equation_0)	voltage
	81	v(n.x1.xm4.nsg13_lv_pmos#implicit_equation_1)	voltage
	82	v(n.x1.xm4.nsg13_lv_pmos#implicit_equation_2)	voltage
	83	v(n.x1.xm5.nsg13_lv_pmos#bd)	voltage
	84	v(n.x1.xm5.nsg13_lv_pmos#bi)	voltage
	85	v(n.x1.xm5.nsg13_lv_pmos#bp)	voltage
	86	v(n.x1.xm5.nsg13_lv_pmos#bs)	voltage
	87	v(n.x1.xm5.nsg13_lv_pmos#di)	voltage
	88	v(n.x1.xm5.nsg13_lv_pmos#gp)	voltage
	89	v(n.x1.xm5.nsg13_lv_pmos#int1)	voltage
	90	v(n.x1.xm5.nsg13_lv_pmos#int2)	voltage
	91	v(n.x1.xm5.nsg13_lv_pmos#int3)	voltage
	92	v(n.x1.xm5.nsg13_lv_pmos#int4)	voltage
	93	v(n.x1.xm5.nsg13_lv_pmos#int5)	voltage
	94	v(n.x1.xm5.nsg13_lv_pmos#int6)	voltage
	95	v(n.x1.xm5.nsg13_lv_pmos#int7)	voltage
	96	v(n.x1.xm5.nsg13_lv_pmos#int8)	voltage
	97	v(n.x1.xm5.nsg13_lv_pmos#int9)	voltage
	98	v(n.x1.xm5.nsg13_lv_pmos#noi)	voltage
	99	v(n.x1.xm5.nsg13_lv_pmos#si)	voltage
	100	v(n.x1.xm5.nsg13_lv_pmos#flow(noii))	voltage
	101	v(n.x1.xm5.nsg13_lv_pmos#flow(res1))	voltage
	102	v(n.x1.xm5.nsg13_lv_pmos#flow(res2))	voltage
	103	v(n.x1.xm5.nsg13_lv_pmos#flow(res3))	voltage
	104	v(n.x1.xm5.nsg13_lv_pmos#flow(res4))	voltage
	105	v(n.x1.xm5.nsg13_lv_pmos#flow(res5))	voltage
	106	v(n.x1.xm5.nsg13_lv_pmos#flow(res6))	voltage
	107	v(n.x1.xm5.nsg13_lv_pmos#flow(res7))	voltage
	108	v(n.x1.xm5.nsg13_lv_pmos#flow(res8))	voltage
	109	v(n.x1.xm5.nsg13_lv_pmos#flow(res9))	voltage
	110	v(n.x1.xm5.nsg13_lv_pmos#flow(spline1))	voltage
	111	v(n.x1.xm5.nsg13_lv_pmos#flow(spline2))	voltage
	112	v(n.x1.xm5.nsg13_lv_pmos#flow(spline3))	voltage
	113	v(n.x1.xm5.nsg13_lv_pmos#flow(spline4))	voltage
	114	v(n.x1.xm5.nsg13_lv_pmos#flow(spline5))	voltage
	115	v(n.x1.xm5.nsg13_lv_pmos#flow(spline6))	voltage
	116	v(n.x1.xm5.nsg13_lv_pmos#flow(spline7))	voltage
	117	v(n.x1.xm5.nsg13_lv_pmos#flow(spline8))	voltage
	118	v(n.x1.xm5.nsg13_lv_pmos#flow(spline9))	voltage
	119	v(n.x1.xm5.nsg13_lv_pmos#implicit_equation_0)	voltage
	120	v(n.x1.xm5.nsg13_lv_pmos#implicit_equation_1)	voltage
	121	v(n.x1.xm5.nsg13_lv_pmos#implicit_equation_2)	voltage
	122	v(n.x1.xm6.nsg13_lv_pmos#bd)	voltage
	123	v(n.x1.xm6.nsg13_lv_pmos#bi)	voltage
	124	v(n.x1.xm6.nsg13_lv_pmos#bp)	voltage
	125	v(n.x1.xm6.nsg13_lv_pmos#bs)	voltage
	126	v(n.x1.xm6.nsg13_lv_pmos#di)	voltage
	127	v(n.x1.xm6.nsg13_lv_pmos#gp)	voltage
	128	v(n.x1.xm6.nsg13_lv_pmos#int1)	voltage
	129	v(n.x1.xm6.nsg13_lv_pmos#int2)	voltage
	130	v(n.x1.xm6.nsg13_lv_pmos#int3)	voltage
	131	v(n.x1.xm6.nsg13_lv_pmos#int4)	voltage
	132	v(n.x1.xm6.nsg13_lv_pmos#int5)	voltage
	133	v(n.x1.xm6.nsg13_lv_pmos#int6)	voltage
	134	v(n.x1.xm6.nsg13_lv_pmos#int7)	voltage
	135	v(n.x1.xm6.nsg13_lv_pmos#int8)	voltage
	136	v(n.x1.xm6.nsg13_lv_pmos#int9)	voltage
	137	v(n.x1.xm6.nsg13_lv_pmos#noi)	voltage
	138	v(n.x1.xm6.nsg13_lv_pmos#si)	voltage
	139	v(n.x1.xm6.nsg13_lv_pmos#flow(noii))	voltage
	140	v(n.x1.xm6.nsg13_lv_pmos#flow(res1))	voltage
	141	v(n.x1.xm6.nsg13_lv_pmos#flow(res2))	voltage
	142	v(n.x1.xm6.nsg13_lv_pmos#flow(res3))	voltage
	143	v(n.x1.xm6.nsg13_lv_pmos#flow(res4))	voltage
	144	v(n.x1.xm6.nsg13_lv_pmos#flow(res5))	voltage
	145	v(n.x1.xm6.nsg13_lv_pmos#flow(res6))	voltage
