Title: ** sch_path: /home/designer/shared/design/ca_ina/testbench_ina.sch
Date: Tue Jan 27 23:00:11  2026
Command: ngspice-44.2, Build Tue Dec  9 03:02:56 UTC 2025
Plotname: AC Analysis
Flags: complex
No. Variables: 3
No. Points: 167
Variables:
	0	frequency	frequency grid=3
	1	vdb(vout)	decibel
	2	vp(vout)	phase
Values:
 0	1.000000000000000e-01,0.000000000000000e+00
	2.715457166822453e+01,0.0
	-9.102301175999622e+01,0.0

 1	1.122364317854310e-01,0.000000000000000e+00
	2.815688920712891e+01,0.0
	-9.114816021607021e+01,0.0

 2	1.259701661992571e-01,0.000000000000000e+00
	2.915911342964229e+01,0.0
	-9.128860927200478e+01,0.0

 3	1.413844196562233e-01,0.000000000000000e+00
	3.016122012617931e+01,0.0
	-9.144622575551253e+01,0.0

 4	1.586848277226846e-01,0.000000000000000e+00
	3.116317881444603e+01,0.0
	-9.162310268753446e+01,0.0

 5	1.781021884207996e-01,0.000000000000000e+00
	3.216495111893801e+01,0.0
	-9.182158603565038e+01,0.0

 6	1.998955412152705e-01,0.000000000000000e+00
	3.316648873458350e+01,0.0
	-9.204430436038581e+01,0.0

 7	2.243556227581952e-01,0.000000000000000e+00
	3.416773086944909e+01,0.0
	-9.229420155227322e+01,0.0

 8	2.518087454937807e-01,0.000000000000000e+00
	3.516860103583198e+01,0.0
	-9.257457281824922e+01,0.0

 9	2.826211508658767e-01,0.000000000000000e+00
	3.616900302780503e+01,0.0
	-9.288910400648363e+01,0.0

 10	3.172038952027798e-01,0.000000000000000e+00
	3.716881588544959e+01,0.0
	-9.324191424550621e+01,0.0

 11	3.560183334599981e-01,0.000000000000000e+00
	3.816788760077794e+01,0.0
	-9.363760169776626e+01,0.0

 12	3.995822739774590e-01,0.000000000000000e+00
	3.916602726715803e+01,0.0
	-9.408129196383879e+01,0.0

 13	4.484768863593849e-01,0.000000000000000e+00
	4.016299531295898e+01,0.0
	-9.457868828664417e+01,0.0

 14	5.033544546321760e-01,0.000000000000000e+00
	4.115849139233832e+01,0.0
	-9.513612214911927e+01,0.0

 15	5.649470791121705e-01,0.000000000000000e+00
	4.215213943481282e+01,0.0
	-9.576060207380580e+01,0.0

 16	6.340764430715161e-01,0.000000000000000e+00
	4.314346928706396e+01,0.0
	-9.645985734332797e+01,0.0

 17	7.116647744954495e-01,0.000000000000000e+00
	4.413189432722034e+01,0.0
	-9.724237187604921e+01,0.0

 18	7.987471491675266e-01,0.000000000000000e+00
	4.511668441366329e+01,0.0
	-9.811740151027854e+01,0.0

 19	8.964852992134860e-01,0.000000000000000e+00
	4.609693357907857e+01,0.0
	-9.909496537539654e+01,0.0

 20	1.006183111318161e+00,0.000000000000000e+00
	4.707152204446378e+01,0.0
	-1.001857987936602e+02,0.0

 21	1.129304021371135e+00,0.000000000000000e+00
	4.803907247655637e+01,0.0
	-1.014012512835425e+02,0.0

 22	1.267490537596344e+00,0.000000000000000e+00
	4.899790103970246e+01,0.0
	-1.027531089251064e+02,0.0

 23	1.422586152616113e+00,0.000000000000000e+00
	4.994596481542036e+01,0.0
	-1.042533161236289e+02,0.0

 24	1.596659936769971e+00,0.000000000000000e+00
	5.088080870318701e+01,0.0
	-1.059135687128699e+02,0.0

 25	1.792034140778135e+00,0.000000000000000e+00
	5.179951706763105e+01,0.0
	-1.077447501641132e+02,0.0

 26	2.011315175986086e+00,0.000000000000000e+00
	5.269867814987819e+01,0.0
	-1.097561881195855e+02,0.0

 27	2.257428385485645e+00,0.000000000000000e+00
	5.357437238163299e+01,0.0
	-1.119547231035976e+02,0.0

 28	2.533657069980553e+00,0.000000000000000e+00
	5.442219861912272e+01,0.0
	-1.143436088490153e+02,0.0

 29	2.843686289025473e+00,0.000000000000000e+00
	5.523735382495200e+01,0.0
	-1.169213066051112e+02,0.0

 30	3.191652021973730e+00,0.000000000000000e+00
	5.601478023307684e+01,0.0
	-1.196802923373958e+02,0.0

 31	3.582196344470875e+00,0.000000000000000e+00
	5.674938772767217e+01,0.0
	-1.226060566181595e+02,0.0

 32	4.020529356582257e+00,0.000000000000000e+00
	5.743634690801745e+01,0.0
	-1.256765231580310e+02,0.0

 33	4.512498688713673e+00,0.000000000000000e+00
	5.807143087333876e+01,0.0
	-1.288621165740907e+02,0.0

 34	5.064667512576590e+00,0.000000000000000e+00
	5.865136491557470e+01,0.0
	-1.321266481503100e+02,0.0

 35	5.684402097911910e+00,0.000000000000000e+00
	5.917412966592063e+01,0.0
	-1.354290527709395e+02,0.0

 36	6.379970083032511e+00,0.000000000000000e+00
	5.963916198797266e+01,0.0
	-1.387258257375845e+02,0.0

 37	7.160650770173691e+00,0.000000000000000e+00
	6.004741289293514e+01,0.0
	-1.419738316857292e+02,0.0

 38	8.036858917058934e+00,0.000000000000000e+00
	6.040125021321913e+01,0.0
	-1.451330563176257e+02,0.0

 39	9.020283676136181e+00,0.000000000000000e+00
	6.070422651220505e+01,0.0
	-1.481688875883499e+02,0.0

 40	1.012404453501895e+01,0.000000000000000e+00
	6.096075835647859e+01,0.0
	-1.510536395061139e+02,0.0

 41	1.136286633847320e+01,0.000000000000000e+00
	6.117577383281503e+01,0.0
	-1.537672168501775e+02,0.0

 42	1.275327572685018e+01,0.000000000000000e+00
	6.135438016341350e+01,0.0
	-1.562969953218569e+02,0.0

 43	1.431382161157413e+01,0.000000000000000e+00
	6.150158756058683e+01,0.0
	-1.586371091061247e+02,0.0

 44	1.606532262896269e+01,0.000000000000000e+00
	6.162210643906253e+01,0.0
	-1.607873807756998e+02,0.0

 45	1.803114487356512e+01,0.000000000000000e+00
	6.172021877400492e+01,0.0
	-1.627521103961356e+02,0.0

 46	2.023751361615115e+01,0.000000000000000e+00
	6.179971369842954e+01,0.0
	-1.645388883765436e+02,0.0

 47	2.271386316485880e+01,0.000000000000000e+00
	6.186387252783901e+01,0.0
	-1.661575354216499e+02,0.0

 48	2.549322953686289e+01,0.000000000000000e+00
	6.191548785959274e+01,0.0
	-1.676192193865711e+02,0.0

 49	2.861269117904447e+01,0.000000000000000e+00
	6.195690339734291e+01,0.0
	-1.689357599291037e+02,0.0

 50	3.211386361714428e+01,0.000000000000000e+00
	6.199006417753314e+01,0.0
	-1.701191079384546e+02,0.0

 51	3.604345463232249e+01,0.000000000000000e+00
	6.201656994106923e+01,0.0
	-1.711809748277211e+02,0.0

 52	4.045388737151941e+01,0.000000000000000e+00
	6.203772700148532e+01,0.0
	-1.721325830905755e+02,0.0

 53	4.540399970429047e+01,0.000000000000000e+00
	6.205459594980151e+01,0.0
	-1.729845106732616e+02,0.0

 54	5.095982915596327e+01,0.000000000000000e+00
	6.206803393161206e+01,0.0
	-1.737466052374669e+02,0.0

 55	5.719549388860490e+01,0.000000000000000e+00
	6.207873114028723e+01,0.0
	-1.744279487116998e+02,0.0

 56	6.419418148262440e+01,0.000000000000000e+00
	6.208724171485716e+01,0.0
	-1.750368567609456e+02,0.0

 57	7.204925870996152e+01,0.000000000000000e+00
	6.209400952781429e+01,0.0
	-1.755809015214224e+02,0.0

 58	8.086551710391467e+01,0.000000000000000e+00
	6.209938946560121e+01,0.0
	-1.760669490137413e+02,0.0

 59	9.076057094227123e+01,0.000000000000000e+00
	6.210366485027863e+01,0.0
	-1.765012050542479e+02,0.0

 60	1.018664262936900e+02,0.000000000000000e+00
	6.210706160292142e+01,0.0
	-1.768892653354894e+02,0.0

 61	1.143312420593737e+02,0.000000000000000e+00
	6.210975970156149e+01,0.0
	-1.772361667161553e+02,0.0

 62	1.283213065034050e+02,0.000000000000000e+00
	6.211190241354997e+01,0.0
	-1.775464377659372e+02,0.0

 63	1.440232556398680e+02,0.000000000000000e+00
	6.211360370813514e+01,0.0
	-1.778241473315312e+02,0.0

 64	1.616465630713973e+02,0.000000000000000e+00
	6.211495419978230e+01,0.0
	-1.780729503959450e+02,0.0

 65	1.814263344951225e+02,0.000000000000000e+00
	6.211602589515434e+01,0.0
	-1.782961308596491e+02,0.0

 66	2.036264441564261e+02,0.000000000000000e+00
	6.211687598631531e+01,0.0
	-1.784966411076661e+02,0.0

 67	2.285430550927260e+02,0.000000000000000e+00
	6.211754985774534e+01,0.0
	-1.786771383889287e+02,0.0

 68	2.565085701294874e+02,0.000000000000000e+00
	6.211808353146292e+01,0.0
	-1.788400181338885e+02,0.0

 69	2.878960663371666e+02,0.000000000000000e+00
	6.211850552562968e+01,0.0
	-1.789874444005126e+02,0.0

 70	3.231242721074532e+02,0.000000000000000e+00
	6.211883840509238e+01,0.0
	-1.791213776748211e+02,0.0

 71	3.626631532460522e+02,0.000000000000000e+00
	6.211909996330086e+01,0.0
	-1.792436002672424e+02,0.0

 72	4.070401826038985e+02,0.000000000000000e+00
	6.211930421034225e+01,0.0
	-1.793557395528673e+02,0.0

 73	4.568473768875184e+02,0.000000000000000e+00
	6.211946205778307e+01,0.0
	-1.794592892999322e+02,0.0

 74	5.127491945238904e+02,0.000000000000000e+00
	6.211958196990344e+01,0.0
	-1.795556293280119e+02,0.0

 75	5.754913999421533e+02,0.000000000000000e+00
	6.211967034576347e+01,0.0
	-1.796460437210127e+02,0.0

 76	6.459110125270969e+02,0.000000000000000e+00
	6.211973192438887e+01,0.0
	-1.797317378194965e+02,0.0

 77	7.249474729695619e+02,0.000000000000000e+00
	6.211976999250893e+01,0.0
	-1.798138541976755e+02,0.0

 78	8.136551759796882e+02,0.000000000000000e+00
	6.211978660223318e+01,0.0
	-1.798934878295003e+02,0.0

 79	9.132175365570714e+02,0.000000000000000e+00
	6.211978263844293e+01,0.0
	-1.799717006349517e+02,0.0

 80	1.024962777470471e+03,0.000000000000000e+00
	6.211975788266179e+01,0.0
	1.799504644081475e+02,0.0

 81	1.150381648561704e+03,0.000000000000000e+00
	6.211971101150401e+01,0.0
	1.798719694006942e+02,0.0

 82	1.291147314260074e+03,0.000000000000000e+00
	6.211963952545959e+01,0.0
	1.797917677323690e+02,0.0

 83	1.449137674618932e+03,0.000000000000000e+00
	6.211953958482734e+01,0.0
	1.797087901898907e+02,0.0

 84	1.626460417650659e+03,0.000000000000000e+00
	6.211940584322407e+01,0.0
	1.796219307775035e+02,0.0

 85	1.825481137173519e+03,0.000000000000000e+00
	6.211923115354394e+01,0.0
	1.795300320809983e+02,0.0

 86	2.048854891279666e+03,0.000000000000000e+00
	6.211900616033388e+01,0.0
	1.794318699934132e+02,0.0

 87	2.299561622433569e+03,0.000000000000000e+00
	6.211871883477077e+01,0.0
	1.793261376053967e+02,0.0

 88	2.580945911726604e+03,0.000000000000000e+00
	6.211835379145100e+01,0.0
	1.792114280970875e+02,0.0

 89	2.896761597633900e+03,0.000000000000000e+00
	6.211789152507228e+01,0.0
	1.790862164105513e+02,0.0

 90	3.251221854514934e+03,0.000000000000000e+00
	6.211730730519375e+01,0.0
	1.789488395461426e+02,0.0

 91	3.649055398935679e+03,0.000000000000000e+00
	6.211656992096454e+01,0.0
	1.787974752631187e+02,0.0

 92	4.095569573639031e+03,0.000000000000000e+00
	6.211563997567555e+01,0.0
	1.786301190408297e+02,0.0

 93	4.596721150742239e+03,0.000000000000000e+00
	6.211446782887513e+01,0.0
	1.784445591093904e+02,0.0

 94	5.159195798719293e+03,0.000000000000000e+00
	6.211299092568625e+01,0.0
	1.782383494727073e+02,0.0

 95	5.790497273306401e+03,0.000000000000000e+00
	6.211113057093675e+01,0.0
	1.780087808079342e+02,0.0

 96	6.499047522191782e+03,0.000000000000000e+00
	6.210878770513779e+01,0.0
	1.777528493471963e+02,0.0

 97	7.294299038947524e+03,0.000000000000000e+00
	6.210583778735906e+01,0.0
	1.774672238428389e+02,0.0

 98	8.186860965073688e+03,0.000000000000000e+00
	6.210212427963945e+01,0.0
	1.771482110798725e+02,0.0

 99	9.188640622433009e+03,0.000000000000000e+00
	6.209745059233160e+01,0.0
	1.767917205695536e+02,0.0

 100	1.031300236420543e+04,0.000000000000000e+00
	6.209157002503851e+01,0.0
	1.763932304771373e+02,0.0

 101	1.157494586353131e+04,0.000000000000000e+00
	6.208417329678718e+01,0.0
	1.759477514133881e+02,0.0

 102	1.299130621832289e+04,0.000000000000000e+00
	6.207487318933708e+01,0.0
	1.754498037919922e+02,0.0

 103	1.458097854176443e+04,0.000000000000000e+00
	6.206318569469672e+01,0.0
	1.748933949940802e+02,0.0

 104	1.636517003467577e+04,0.000000000000000e+00
	6.204850695540454e+01,0.0
	1.742720160145468e+02,0.0

 105	1.836768290253866e+04,0.000000000000000e+00
	6.203008556113163e+01,0.0
	1.735786566739150e+02,0.0

 106	2.061523189147208e+04,0.000000000000000e+00
	6.200698938132598e+01,0.0
	1.728058601956780e+02,0.0

 107	2.313780067928048e+04,0.000000000000000e+00
	6.197806680142352e+01,0.0
	1.719458155018412e+02,0.0

 108	2.596904187604962e+04,0.000000000000000e+00
	6.194190198664909e+01,0.0
	1.709905281929048e+02,0.0

 109	2.914672597054245e+04,0.000000000000000e+00
	6.189676547381454e+01,0.0
	1.699320735398031e+02,0.0

 110	3.271324521161438e+04,0.000000000000000e+00
	6.184056151225235e+01,0.0
	1.687629746573406e+02,0.0

 111	3.671617914673436e+04,0.000000000000000e+00
	6.177077632034475e+01,0.0
	1.674767384928049e+02,0.0

 112	4.120892936224115e+04,0.000000000000000e+00
	6.168443375660384e+01,0.0
	1.660685825455932e+02,0.0

 113	4.625143189315824e+04,0.000000000000000e+00
	6.157806842083259e+01,0.0
	1.645363897910094e+02,0.0

 114	5.191095680654963e+04,0.000000000000000e+00
	6.144773116882462e+01,0.0
	1.628819044996889e+02,0.0

 115	5.826300562534763e+04,0.000000000000000e+00
	6.128904654901568e+01,0.0
	1.611121570457114e+02,0.0

 116	6.539231856483513e+04,0.000000000000000e+00
	6.109734539261463e+01,0.0
	1.592410442965410e+02,0.0

 117	7.339400501893292e+04,0.000000000000000e+00
	6.086789715019260e+01,0.0
	1.572909130493931e+02,0.0

 118	8.237481237767046e+04,0.000000000000000e+00
	6.059626044363215e+01,0.0
	1.552938886019790e+02,0.0

 119	9.245455010264089e+04,0.000000000000000e+00
	6.027875663151342e+01,0.0
	1.532925819029971e+02,0.0

 120	1.037676880584777e+05,0.000000000000000e+00
	5.991304338170161e+01,0.0
	1.513397385450603e+02,0.0

 121	1.164651504230721e+05,0.000000000000000e+00
	5.949872979364379e+01,0.0
	1.494964076224092e+02,0.0

 122	1.307163291083910e+05,0.000000000000000e+00
	5.903793548134807e+01,0.0
	1.478283689109712e+02,0.0

 123	1.467113435521587e+05,0.000000000000000e+00
	5.853566843849756e+01,0.0
	1.464008725238407e+02,0.0

 124	1.646635770274080e+05,0.000000000000000e+00
	5.799989674415976e+01,0.0
	1.452721888439033e+02,0.0

 125	1.848125233058174e+05,0.000000000000000e+00
	5.744122862774010e+01,0.0
	1.444868942043519e+02,0.0

 126	2.074269816510675e+05,0.000000000000000e+00
	5.687219112695944e+01,0.0
	1.440700911685115e+02,0.0

 127	2.328086427653789e+05,0.000000000000000e+00
	5.630619159550211e+01,0.0
	1.440237213563283e+02,0.0

 128	2.612961135279523e+05,0.000000000000000e+00
	5.575632746315107e+01,0.0
	1.443257545633318e+02,0.0

 129	2.932694342177825e+05,0.000000000000000e+00
	5.523425000868718e+01,0.0
	1.449324106067752e+02,0.0

 130	3.291551484833609e+05,0.000000000000000e+00
	5.474927173269698e+01,0.0
	1.457828970798437e+02,0.0

 131	3.694319936957615e+05,0.000000000000000e+00
	5.430784157487220e+01,0.0
	1.468056647993724e+02,0.0

 132	4.146372875979012e+05,0.000000000000000e+00
	5.391342185807849e+01,0.0
	1.479249541794397e+02,0.0

 133	4.653740964517798e+05,0.000000000000000e+00
	5.356671496222469e+01,0.0
	1.490665787862904e+02,0.0

 134	5.223192803111677e+05,0.000000000000000e+00
	5.326613142282380e+01,0.0
	1.501622336969264e+02,0.0

 135	5.862325227485979e+05,0.000000000000000e+00
	5.300837257483963e+01,0.0
	1.511520619137411e+02,0.0

 136	6.579664654987414e+05,0.000000000000000e+00
	5.278901556968375e+01,0.0
	1.519856018360627e+02,0.0

 137	7.384780832205063e+05,0.000000000000000e+00
	5.260302226988771e+01,0.0
	1.526214500630780e+02,0.0

 138	8.288414501241420e+05,0.000000000000000e+00
	5.244513113825823e+01,0.0
	1.530260911660772e+02,0.0

 139	9.302620687779598e+05,0.000000000000000e+00
	5.231012256037080e+01,0.0
	1.531722861634912e+02,0.0

 140	1.044092952249714e+06,0.000000000000000e+00
	5.219296846095261e+01,0.0
	1.530373483929532e+02,0.0

 141	1.171852674128243e+06,0.000000000000000e+00
	5.208888692846078e+01,0.0
	1.526015118676985e+02,0.0

 142	1.315245627223695e+06,0.000000000000000e+00
	5.199332472465215e+01,0.0
	1.518465205342061e+02,0.0

 143	1.476184761209787e+06,0.000000000000000e+00
	5.190188818678179e+01,0.0
	1.507544933447542e+02,0.0

 144	1.656817102542150e+06,0.000000000000000e+00
	5.181023894692220e+01,0.0
	1.493070848008001e+02,0.0

 145	1.859552397104074e+06,0.000000000000000e+00
	5.171396679087329e+01,0.0
	1.474849453523729e+02,0.0

 146	2.087095257690062e+06,0.000000000000000e+00
	5.160844894024795e+01,0.0
	1.452674763740964e+02,0.0

 147	2.342481245194272e+06,0.000000000000000e+00
	5.148870357497810e+01,0.0
	1.426328888463833e+02,0.0

 148	2.629117364848983e+06,0.000000000000000e+00
	5.134924553789762e+01,0.0
	1.395585717487356e+02,0.0

 149	2.950827517757651e+06,0.000000000000000e+00
	5.118395399878983e+01,0.0
	1.360217888050358e+02,0.0

 150	3.311903514073793e+06,0.000000000000000e+00
	5.098596489617320e+01,0.0
	1.320007120700936e+02,0.0

 151	3.717162328372725e+06,0.000000000000000e+00
	5.074760470564372e+01,0.0
	1.274757819063248e+02,0.0

 152	4.172010361037793e+06,0.000000000000000e+00
	5.046038518238343e+01,0.0
	1.224313457710080e+02,0.0

 153	4.682515562947297e+06,0.000000000000000e+00
	5.011507956363594e+01,0.0
	1.168574699419905e+02,0.0

 154	5.255488385649533e+06,0.000000000000000e+00
	4.970189711399388e+01,0.0
	1.107517470779012e+02,0.0

 155	5.898572636950788e+06,0.000000000000000e+00
	4.921076340241896e+01,0.0
	1.041208579456767e+02,0.0

 156	6.620347453985371e+06,0.000000000000000e+00
	4.863169790743993e+01,0.0
	9.698160231744993e+01,0.0

 157	7.430441754150810e+06,0.000000000000000e+00
	4.795526106962174e+01,0.0
	8.936113162197630e+01,0.0

 158	8.339662690753657e+06,0.000000000000000e+00
	4.717302460683744e+01,0.0
	8.129619266316564e+01,0.0

 159	9.360139827042770e+06,0.000000000000000e+00
	4.627800747054130e+01,0.0
	7.283133157682089e+01,0.0

 160	1.050548695199982e+07,0.000000000000000e+00
	4.526501940812999e+01,0.0
	6.401616785670308e+01,0.0

 161	1.179098369660863e+07,0.000000000000000e+00
	4.413086459028891e+01,0.0
	5.490199567486447e+01,0.0

 162	1.323377937347544e+07,0.000000000000000e+00
	4.287437601609932e+01,0.0
	4.553806825560248e+01,0.0

 163	1.485312175914520e+07,0.000000000000000e+00
	4.149627301501834e+01,0.0
	3.596796698240896e+01,0.0

 164	1.667061387121002e+07,0.000000000000000e+00
	3.999885599524958e+01,0.0
	2.622644752333956e+01,0.0

 165	1.871050216577323e+07,0.000000000000000e+00
	3.838557239029323e+01,0.0
	1.633709963335956e+01,0.0

 166	2.099999999999966e+07,0.000000000000000e+00
	3.666050316059260e+01,0.0
	6.311059029970369e+00,0.0

Title: ** sch_path: /home/designer/shared/design/ca_ina/testbench_ina.sch
Date: Tue Jan 27 23:00:11  2026
Command: ngspice-44.2, Build Tue Dec  9 03:02:56 UTC 2025
Plotname: Operating Point
Flags: real
No. Variables: 1490
No. Points: 1
Variables:
	0	v(x1.net1)	voltage
	1	@n.xm1.nsg13_lv_nmos[gds]	admittance
	2	@n.xm2.nsg13_lv_nmos[gds]	admittance
	3	@n.xm3.nsg13_lv_nmos[gds]	admittance
	4	@n.xm4.nsg13_lv_nmos[gds]	admittance
	5	@n.xm5.nsg13_lv_nmos[gds]	admittance
	6	@n.xm7.nsg13_lv_nmos[gds]	admittance
	7	@n.xm8.nsg13_lv_nmos[gds]	admittance
	8	i(e1)	current
	9	i(e2)	current
	10	v(n.x1.xm3.nsg13_lv_pmos#bd)	voltage
	11	v(n.x1.xm3.nsg13_lv_pmos#bi)	voltage
	12	v(n.x1.xm3.nsg13_lv_pmos#bp)	voltage
	13	v(n.x1.xm3.nsg13_lv_pmos#bs)	voltage
	14	v(n.x1.xm3.nsg13_lv_pmos#di)	voltage
	15	v(n.x1.xm3.nsg13_lv_pmos#gp)	voltage
	16	v(n.x1.xm3.nsg13_lv_pmos#int1)	voltage
	17	v(n.x1.xm3.nsg13_lv_pmos#int2)	voltage
	18	v(n.x1.xm3.nsg13_lv_pmos#int3)	voltage
	19	v(n.x1.xm3.nsg13_lv_pmos#int4)	voltage
	20	v(n.x1.xm3.nsg13_lv_pmos#int5)	voltage
	21	v(n.x1.xm3.nsg13_lv_pmos#int6)	voltage
	22	v(n.x1.xm3.nsg13_lv_pmos#int7)	voltage
	23	v(n.x1.xm3.nsg13_lv_pmos#int8)	voltage
	24	v(n.x1.xm3.nsg13_lv_pmos#int9)	voltage
	25	v(n.x1.xm3.nsg13_lv_pmos#noi)	voltage
	26	v(n.x1.xm3.nsg13_lv_pmos#si)	voltage
	27	v(n.x1.xm3.nsg13_lv_pmos#flow(noii))	voltage
	28	v(n.x1.xm3.nsg13_lv_pmos#flow(res1))	voltage
	29	v(n.x1.xm3.nsg13_lv_pmos#flow(res2))	voltage
	30	v(n.x1.xm3.nsg13_lv_pmos#flow(res3))	voltage
	31	v(n.x1.xm3.nsg13_lv_pmos#flow(res4))	voltage
	32	v(n.x1.xm3.nsg13_lv_pmos#flow(res5))	voltage
	33	v(n.x1.xm3.nsg13_lv_pmos#flow(res6))	voltage
	34	v(n.x1.xm3.nsg13_lv_pmos#flow(res7))	voltage
	35	v(n.x1.xm3.nsg13_lv_pmos#flow(res8))	voltage
	36	v(n.x1.xm3.nsg13_lv_pmos#flow(res9))	voltage
	37	v(n.x1.xm3.nsg13_lv_pmos#flow(spline1))	voltage
	38	v(n.x1.xm3.nsg13_lv_pmos#flow(spline2))	voltage
	39	v(n.x1.xm3.nsg13_lv_pmos#flow(spline3))	voltage
	40	v(n.x1.xm3.nsg13_lv_pmos#flow(spline4))	voltage
	41	v(n.x1.xm3.nsg13_lv_pmos#flow(spline5))	voltage
	42	v(n.x1.xm3.nsg13_lv_pmos#flow(spline6))	voltage
	43	v(n.x1.xm3.nsg13_lv_pmos#flow(spline7))	voltage
	44	v(n.x1.xm3.nsg13_lv_pmos#flow(spline8))	voltage
	45	v(n.x1.xm3.nsg13_lv_pmos#flow(spline9))	voltage
	46	v(n.x1.xm3.nsg13_lv_pmos#implicit_equation_0)	voltage
